Circuit: * C:\Users\krets\Documents\DevinPCB\Boards\PS-ThermistorCollectorPCB\docs\Draft1.asc

Direct Newton iteration for .op point succeeded.
Semiconductor Device Operating Points:
                        --- Diodes ---
Name:    d:u1:4      d:u1:1
Model:    u1:di       u1:x
Id:     -8.15e-10   -7.00e-06
Vd:     -8.15e-01   -9.40e-01
Req:     1.00e-09    1.00e-04
CAP:     0.00e+00    0.00e+00

                        --- VDMOSFET Transistors ---
Name:        m:u1:2      m:u1:1
Model:        u1:p        u1:n
Id:         -2.25e-03    2.25e-03
Vgs:         2.60e-04    2.60e-04
Vds:        -2.37e+00    9.30e-01
Vth:         3.00e-01   -3.00e-01
Gm:          1.50e-02    1.50e-02
Gds:         0.00e+00    0.00e+00
Cgs:         0.00e+00    0.00e+00
Cgd:         0.00e+00    0.00e+00
Cbody:       0.00e+00    0.00e+00



Date: Thu Dec 04 20:44:01 2025
Total elapsed time: 0.056 seconds.

tnom = 27
temp = 27
method = trap
totiter = 46
traniter = 0
tranpoints = 0
accept = 0
rejected = 0
matrix size = 12
fillins = 6
solver = Normal
Matrix Compiler1: 832 bytes object code size
Matrix Compiler2:      87 opcodes
